!
! FILE: D:\iPass\iPassCable1005\iPassCable\SOLT_cal\halfmeter_A5A6B5B6.s4p
!
# MHz S MA R 50.00
!
! FREQ                  S11                         S12                         S13                         S14
!                       S21                         S22                         S23                         S24
!                       S31                         S32                         S33                         S34
!                       S41                         S42                         S43                         S44                         
!                       
!                  MAG       ANG               MAG       ANG               MAG       ANG               MAG       ANG               
  50.000       0.076873     1.786954       0.970193   -56.427305       0.053389    14.491709       0.018065  -162.772705    
               0.967900   -56.523044       0.076682     0.086524       0.018063  -162.352976       0.052073    20.268627    
               0.053143    14.722766       0.018216  -162.031644       0.075744     0.319007       0.976216   -56.375082    
               0.018434  -162.520700       0.052095    20.193309       0.976752   -56.415113       0.073981     3.660279    
            
  60.000       0.078633    -8.753641       0.967180   -67.814821       0.058466     0.220767       0.023251  -168.101207    
               0.965687   -67.912645       0.079346   -11.986651       0.023422  -168.152921       0.056749     7.753171    
               0.058284     0.541721       0.023738  -167.824526       0.079164   -12.111518       0.973458   -67.642268    
               0.023698  -167.890991       0.056673     7.559270       0.974804   -67.719125       0.077238    -8.293805    
            
  70.000       0.080056   -18.349324       0.962022   -79.115280       0.061060   -13.740134       0.029675   177.685810    
               0.960106   -79.229753       0.080213   -23.047709       0.029852   176.886406       0.058910    -4.018338    
               0.060728   -13.294596       0.030135   177.267148       0.080611   -23.573837       0.968177   -78.909089    
               0.030159   177.968587       0.058785    -4.305610       0.969395   -78.968904       0.077825   -19.135353    
            
  80.000       0.080097   -29.647002       0.957002   -90.257287       0.061376   -27.842006       0.033331   160.663187    
               0.954754   -90.329892       0.078484   -34.930240       0.033221   159.504990       0.058902   -15.433836    
               0.061188   -27.242254       0.033703   160.106650       0.080202   -35.686541       0.963797   -89.892625    
               0.033954   161.080072       0.058757   -15.756977       0.963860   -89.970197       0.076348   -29.990315    
            
  90.000       0.075135   -42.394335       0.954076  -101.306238       0.058477   -42.098171       0.033796   146.911868    
               0.952057  -101.335741       0.072769   -47.372514       0.033314   145.911177       0.055927   -26.047401    
               0.058290   -41.567419       0.033998   146.377099       0.076058   -48.584300       0.961206  -100.891112    
               0.034608   147.349241       0.055573   -26.607232       0.961292  -100.921125       0.071684   -40.568343    
            
 100.000       0.065204   -54.927707       0.953301  -112.456775       0.052718   -55.766076       0.034289   140.181600    
               0.951775  -112.486061       0.062945   -59.349300       0.033537   139.850428       0.050690   -34.501727    
               0.052332   -55.148528       0.034452   140.143062       0.068345   -61.555110       0.960956  -112.011829    
               0.035364   140.435575       0.049852   -35.287479       0.961127  -112.018273       0.064308   -50.322506    
            
 110.000       0.050662   -66.043150       0.952286  -123.824423       0.044431   -69.627893       0.039454   135.865563    
               0.950794  -123.871111       0.048026   -69.541528       0.038895   136.170973       0.043726   -40.351195    
               0.043823   -68.641951       0.040111   136.082659       0.056675   -74.864800       0.959816  -123.312651    
               0.040944   135.790488       0.042378   -40.876351       0.960287  -123.308900       0.052752   -58.268692    
            
 120.000       0.032478   -70.572334       0.947667  -135.355098       0.031934   -83.240078       0.049438   125.787281    
               0.945820  -135.395096       0.029617   -70.257528       0.049299   126.079452       0.035339   -38.990938    
               0.031165   -81.255856       0.050933   125.578095       0.040151   -86.716449       0.955524  -134.792550    
               0.051514   125.231513       0.033568   -38.196766       0.956633  -134.768318       0.038651   -58.601166    
            
 130.000       0.017074   -41.666243       0.938170  -146.899145       0.015195   -86.570765       0.060245   110.137131    
               0.936307  -146.926904       0.018830   -26.097394       0.060452   110.118588       0.032037   -22.780834    
               0.014715   -79.126526       0.062590   109.205847       0.020556   -87.753247       0.946639  -146.187910    
               0.063133   109.062151       0.031055   -18.348414       0.948445  -146.198486       0.029264   -37.897350    
            
 140.000       0.032462     7.907832       0.921138  -158.453532       0.013793     5.296019       0.072046    92.239554    
               0.919026  -158.491187       0.043291     4.750850       0.072551    91.864825       0.045133    -7.907419    
               0.016844     1.581277       0.075712    90.189919       0.015815    -9.430388       0.933462  -157.542026    
               0.076257    90.017025       0.047840    -4.282732       0.934909  -157.653148       0.041554   -11.003251    
            
 150.000       0.061766    -5.413662       0.890836  -169.156518       0.039574    -6.463218       0.084933    67.511823    
               0.888135  -169.122768       0.077249   -15.320640       0.085473    66.504017       0.069938   -20.333768    
               0.041738   -10.697859       0.088994    62.640779       0.042698    -8.275416       0.911411  -168.477966    
               0.088757    62.454276       0.075213   -21.144114       0.910029  -168.559524       0.068318   -18.848940    
            
 160.000       0.072170   -37.509649       0.876699  -177.348857       0.052728   -46.675042       0.079381    28.201981    
               0.876332  -177.230533       0.083183   -50.272905       0.078862    26.804262       0.079351   -53.753154    
               0.053072   -50.394700       0.075164    21.292040       0.056872   -40.650558       0.892976  -177.521373    
               0.074742    22.206469       0.079465   -56.948678       0.893173  -177.365684       0.078723   -47.729894    
            
 170.000       0.052864   -31.413823       0.904184   171.512919       0.031176   -44.316649       0.053006    26.049984    
               0.903781   171.553285       0.056758   -42.070164       0.052545    25.458089       0.048700   -54.691809    
               0.031524   -47.677427       0.050109    26.089549       0.043035   -32.607069       0.912801   171.698255    
               0.050620    26.387148       0.048349   -55.766644       0.914538   171.754487       0.056045   -42.317028    
            
 180.000       0.071333   -53.731840       0.882060   162.259513       0.053486   -69.846422       0.060281   -12.139213    
               0.883337   162.167670       0.081244   -61.782764       0.059714   -13.495058       0.070807   -74.429061    
               0.051515   -72.578239       0.057716   -15.021985       0.066355   -56.729564       0.892839   162.296962    
               0.057879   -14.199116       0.068723   -75.698961       0.895672   162.247968       0.079064   -61.852454    
            
 190.000       0.041157   -32.765720       0.925716   151.107990       0.013619   -55.458446       0.020352     1.974827    
               0.925572   150.989356       0.048428   -47.917104       0.020217     2.094244       0.023513   -74.559677    
               0.012898   -55.536581       0.020037     3.724500       0.036483   -40.686471       0.933935   151.371594    
               0.020144     3.950758       0.023345   -72.967130       0.935671   151.282488       0.042000   -49.461441    
            
 200.000       0.063649   -22.738914       0.930652   139.151294       0.033786   -15.346733       0.029527    27.570244    
               0.929075   138.929367       0.070271   -37.590834       0.029692    26.352144       0.035691   -29.326231    
               0.033326   -15.190540       0.029220    26.546556       0.058684   -28.444722       0.939177   139.428531    
               0.029184    27.328814       0.035379   -29.138737       0.939789   139.263652       0.062477   -33.425645    
            
 210.000       0.080922   -28.360818       0.932150   127.544858       0.050882   -23.378839       0.039773    26.482823    
               0.926839   127.379856       0.088425   -44.164264       0.039640    24.866328       0.051615   -29.561980    
               0.050489   -23.227659       0.039647    25.419236       0.077342   -35.206016       0.940215   127.850927    
               0.039421    26.709155       0.051504   -29.391328       0.937570   127.740127       0.080212   -38.425333    
            
 220.000       0.097915   -36.986832       0.927339   115.880121       0.067931   -34.709447       0.053874    13.084678    
               0.920277   116.023673       0.105311   -52.806531       0.053350    11.314527       0.068017   -35.849568    
               0.067515   -34.754147       0.053469    11.302518       0.095731   -44.678091       0.935520   116.205257    
               0.053432    13.383434       0.067569   -35.783713       0.931446   116.356688       0.097407   -46.074603    
            
 230.000       0.112014   -48.327011       0.916831   104.653244       0.082072   -48.835244       0.059606    -7.276788    
               0.914253   105.141430       0.119511   -63.794613       0.058754    -9.019744       0.082438   -45.770394    
               0.081482   -48.871243       0.058630    -9.443945       0.111605   -56.654070       0.923909   105.066273    
               0.059373    -6.735897       0.081970   -45.767213       0.923744   105.497320       0.112267   -56.112159    
            
 240.000       0.121308   -60.842572       0.909755    93.996190       0.091744   -63.030016       0.055195   -23.738703    
               0.915814    94.400884       0.129199   -75.788688       0.054078   -25.732149       0.093387   -57.237962    
               0.091170   -62.983589       0.053510   -25.955351       0.122847   -69.607078       0.916636    94.507046    
               0.055528   -23.194727       0.092734   -57.240985       0.923535    94.857240       0.122841   -67.030497    
            
 250.000       0.126457   -73.340079       0.912205    83.324579       0.099271   -76.418469       0.048295   -28.428190    
               0.921808    83.161623       0.135012   -87.563583       0.046703   -30.125394       0.100572   -68.413959    
               0.098776   -76.372951       0.046251   -29.781525       0.129894   -82.464093       0.919220    83.914151    
               0.048946   -28.346338       0.099865   -68.357976       0.928950    83.778968       0.130252   -77.690876    
            
 260.000       0.128346   -86.421510       0.918711    72.134559       0.105319   -90.953797       0.053528   -24.080825    
               0.921943    71.439668       0.137562   -99.952695       0.052017   -25.205820       0.105807   -79.661713    
               0.104890   -90.903951       0.052021   -24.524545       0.134120   -95.929508       0.925862    72.794283    
               0.054188   -24.695288       0.105132   -79.618057       0.929998    72.235475       0.134703   -88.936674    
            
 270.000       0.124806   -99.923350       0.919454    60.470137       0.105638  -106.566404       0.072439   -32.342559    
               0.911954    59.860563       0.133565  -112.647872       0.070425   -33.765097       0.106121   -91.496545    
               0.105256  -106.552737       0.071296   -33.355775       0.132984  -110.238530       0.927344    61.161085    
               0.072563   -33.001871       0.105429   -91.578024       0.922291    60.700707       0.133179  -100.519706    
            
 280.000       0.116241  -112.688915       0.911081    48.890941       0.100949  -121.259716       0.087477   -51.970431    
               0.899725    48.873077       0.123850  -123.662836       0.084189   -53.385359       0.101510  -101.158921    
               0.100445  -121.289841       0.085649   -53.628637       0.126450  -124.194545       0.918095    49.569107    
               0.087368   -52.118986       0.100489  -101.388626       0.909899    49.644751       0.126255  -110.481244    
            
 290.000       0.104436  -124.821311       0.900914    37.732590       0.093416  -136.098149       0.089704   -71.969576    
               0.894973    38.186212       0.111629  -133.288419       0.085522   -72.931057       0.096900  -108.920712    
               0.092566  -136.033957       0.086548   -73.558347       0.116720  -137.855580       0.906216    38.562090    
               0.090219   -71.602638       0.095099  -109.064471       0.903219    39.054594       0.117737  -118.942807    
            
 300.000       0.087636  -136.404992       0.894613    26.819246       0.080427  -151.371881       0.084754   -85.849119    
               0.896358    27.207328       0.095228  -140.610964       0.080317   -85.782748       0.090287  -115.752626    
               0.079378  -150.964398       0.081351   -86.359301       0.102262  -151.801733       0.900478    27.867694    
               0.086828   -85.464823       0.087909  -115.286941       0.904809    28.304435       0.106507  -125.652675    
            
 310.000       0.065193  -144.876297       0.891831    15.619409       0.062326  -165.337081       0.085228   -93.369587    
               0.895344    15.677038       0.077217  -141.653920       0.081869   -92.088399       0.082522  -118.360534    
               0.061041  -164.326240       0.083519   -93.224881       0.082218  -164.888653       0.900493    16.852108    
               0.088749   -94.152582       0.080429  -116.680234       0.907271    16.979850       0.094996  -128.517987    
            
 320.000       0.040701  -138.913986       0.882516     4.009577       0.039455  -174.928265       0.096539  -102.527313    
               0.884490     3.951584       0.067413  -131.230178       0.095052  -101.027170       0.081483  -116.156597    
               0.038118  -171.152834       0.096341  -103.206428       0.056577  -174.208553       0.895613     5.299606    
               0.100149  -104.922676       0.081680  -113.265004       0.901528     5.279839       0.088803  -126.518614    
            
 330.000       0.039873  -101.521002       0.859933    -7.212147       0.019261  -144.384705       0.112376  -118.221329    
               0.862696    -7.366617       0.081240  -120.378422       0.112864  -117.441499       0.093188  -115.697182    
               0.022966  -136.026180       0.112052  -120.079888       0.031896  -159.248729       0.877705    -6.124981    
               0.114226  -121.967898       0.097589  -114.113537       0.884802    -6.312951       0.095159  -123.355689    
            
 340.000       0.062835   -99.399823       0.839358   -17.154801       0.035815  -110.153152       0.120951  -138.907542    
               0.839202   -17.603556       0.103703  -127.814584       0.122234  -139.403249       0.110271  -125.361486    
               0.040035  -115.962580       0.119350  -141.537504       0.039596  -125.848531       0.856629   -16.471266    
               0.118416  -143.067402       0.114782  -126.542393       0.859652   -17.074268       0.110219  -128.838962    
            
 350.000       0.077090  -109.504437       0.832634   -26.826854       0.053102  -119.132630       0.119802  -160.198627    
               0.825380   -27.132060       0.111693  -140.530582       0.120089  -161.713779       0.116211  -140.101730    
               0.054668  -124.348684       0.116284  -163.710707       0.055315  -125.174078       0.846319   -26.313168    
               0.113293  -163.439537       0.117122  -142.212653       0.839287   -26.777268       0.116744  -139.842836    
            
 360.000       0.075350  -125.481481       0.839568   -36.607646       0.056604  -138.743147       0.102409  -179.614040    
               0.832726   -36.353346       0.099652  -152.437161       0.101031   178.378594       0.102318  -155.968096    
               0.056435  -142.997273       0.096262   177.400249       0.059514  -138.800415       0.850062   -36.000214    
               0.095438   179.910622       0.100232  -157.196200       0.842478   -35.706482       0.104940  -151.757699    
            
 370.000       0.064472  -125.436718       0.847103   -47.639709       0.046660  -139.286334       0.090337   172.495213    
               0.845216   -47.213741       0.089393  -148.967533       0.087673   170.788740       0.082747  -157.266575    
               0.045792  -143.099738       0.084509   170.918024       0.051080  -134.850689       0.858394   -46.923939    
               0.086680   173.533117       0.081359  -157.287399       0.857181   -46.384195       0.091372  -149.595801    
            
 380.000       0.073327  -120.643910       0.838621   -58.861497       0.055445  -129.258651       0.093934   163.528908    
               0.842688   -58.411317       0.104245  -145.794940       0.090945   162.377456       0.085931  -151.904976    
               0.053570  -131.898171       0.088334   162.024331       0.063565  -124.345913       0.851355   -58.222764    
               0.092278   164.122490       0.085345  -152.012387       0.857013   -57.629800       0.102199  -145.302051    
            
 390.000       0.092023  -134.960937       0.817439   -68.583385       0.078152  -142.681208       0.100317   143.415886    
               0.828118   -68.666191       0.130634  -158.579918       0.097158   142.279838       0.106249  -162.789617    
               0.075217  -144.974027       0.092436   141.912923       0.088922  -137.369133       0.828355   -68.241010    
               0.098215   142.795477       0.104798  -163.390313       0.842787   -68.191318       0.126946  -156.451876    
            
 400.000       0.072871  -160.475994       0.837067   -76.668336       0.068539  -173.544526       0.076989   114.393336    
               0.839800   -77.376271       0.114446   178.838752       0.073655   113.577939       0.088449   168.584450    
               0.064674  -174.866922       0.069272   115.515228       0.077480  -164.058684       0.841712   -76.165905    
               0.072691   114.911422       0.085576   169.022615       0.847667   -76.941440       0.110275  -179.561301    
            
 410.000       0.044830  -142.340496       0.874951   -88.039542       0.035303  -162.910331       0.041680   117.127729    
               0.872076   -88.587565       0.082259  -176.990412       0.040147   117.534265       0.041697   174.871805    
               0.033598  -161.687552       0.039752   121.480332       0.050464  -151.321856       0.881130   -87.331051    
               0.041133   120.373189       0.041933   176.773988       0.880010   -87.874517       0.073432  -173.202888    
            
