!
! FILE: D:\iPass\iPassCable1005\iPassCable\SOLT_cal\halfmeter_A5A6A2A3NE.s4p
!
# MHz S MA R 50.00
!
! FREQ                  S11                         S12                         S13                         S14
!                       S21                         S22                         S23                         S24
!                       S31                         S32                         S33                         S34
!                       S41                         S42                         S43                         S44                         
!                       
!                  MAG       ANG               MAG       ANG               MAG       ANG               MAG       ANG               
  50.000       0.076425     4.956226       0.003118    14.315947       0.052513    14.173736       0.002256    11.507005    
               0.003092    14.224409       0.068670    -1.292362       0.002338     7.484693       0.051788    14.976582    
               0.052062    14.525853       0.002281     7.555538       0.075206     2.458219       0.001996     7.322125    
               0.002157    11.815500       0.051678    15.268081       0.002059     5.922434       0.080052     6.003866    
            
  60.000       0.081492    -7.147554       0.003292     0.985970       0.057772    -0.194046       0.002239    -1.572875    
               0.003267     1.239118       0.071849   -12.457680       0.002484    -5.041648       0.056771     0.920511    
               0.057421     0.078852       0.002417    -3.819879       0.080754   -10.376031       0.002046    -4.662412    
               0.002217    -1.099051       0.056634     1.130822       0.002081    -5.226695       0.085278    -7.387077    
            
  70.000       0.082910   -19.325579       0.003274   -13.589436       0.060588   -14.592069       0.002203   -13.769992    
               0.003193   -13.075985       0.071810   -23.868435       0.002391   -18.350945       0.059312   -13.310269    
               0.060169   -14.207717       0.002429   -17.362170       0.083008   -23.411488       0.002057   -18.282035    
               0.002235   -15.312999       0.058975   -13.014174       0.002013   -16.282628       0.086882   -20.929055    
            
  80.000       0.080843   -31.690530       0.002991   -27.936503       0.060800   -28.944572       0.002069   -27.430152    
               0.003009   -27.446425       0.068518   -35.371284       0.002185   -31.122761       0.059009   -27.345678    
               0.060554   -28.596953       0.002171   -31.307181       0.082044   -36.527299       0.001947   -29.960281    
               0.002085   -27.147136       0.058803   -27.078917       0.001951   -30.491570       0.084566   -34.513925    
            
  90.000       0.075350   -44.095485       0.002585   -43.637428       0.058581   -43.371572       0.001908   -39.662202    
               0.002625   -43.073981       0.062289   -46.752562       0.001955   -47.205744       0.056179   -41.444366    
               0.058325   -43.163029       0.001967   -47.362729       0.077803   -49.821624       0.001794   -43.314915    
               0.001854   -38.914352       0.055926   -41.199665       0.001779   -43.018387       0.078546   -48.200563    
            
 100.000       0.066413   -56.605340       0.002200   -60.917330       0.053625   -58.417176       0.001688   -51.406649    
               0.002185   -60.033511       0.053002   -57.978594       0.001674   -63.894388       0.050487   -55.951184    
               0.053389   -58.179395       0.001689   -63.749865       0.070336   -63.369666       0.001614   -55.891782    
               0.001698   -50.787339       0.050328   -55.656426       0.001611   -56.680066       0.068678   -62.140248    
            
 110.000       0.053936   -69.203159       0.001784   -80.712749       0.045760   -74.378565       0.001598   -61.482612    
               0.001784   -80.518826       0.040634   -68.451159       0.001445   -82.551539       0.041610   -71.007898    
               0.045516   -74.036203       0.001442   -81.801097       0.059477   -77.353097       0.001518   -68.051443    
               0.001573   -60.795082       0.041487   -70.791840       0.001484   -68.633501       0.054785   -76.635707    
            
 120.000       0.037651   -80.940943       0.001605  -100.888181       0.034411   -91.812290       0.001803   -69.124457    
               0.001590  -101.629355       0.025031   -75.622356       0.001387   -97.202193       0.029271   -86.896685    
               0.034276   -91.371976       0.001375   -99.554453       0.044905   -91.954481       0.001622   -77.280620    
               0.001791   -69.048855       0.029131   -86.775369       0.001623   -77.550022       0.036450   -92.184888    
            
 130.000       0.017408   -86.584781       0.002033  -110.697984       0.019418  -113.857400       0.002804   -79.510686    
               0.002031  -111.649936       0.008206   -48.556755       0.001849  -106.813228       0.013042  -106.072630    
               0.019243  -112.974195       0.001837  -106.254062       0.026372  -107.403104       0.002426   -86.656172    
               0.002787   -79.297344       0.012977  -105.621981       0.002398   -86.276057       0.013606  -113.157594    
            
 140.000       0.011303    31.486474       0.004378  -116.707789       0.004329   131.692158       0.005926   -96.965309    
               0.004376  -116.986683       0.020732    40.625537       0.003983  -114.612928       0.008272    72.958342    
               0.003944   129.687944       0.003981  -114.153252       0.002710  -124.756907       0.005009  -102.694982    
               0.005917   -97.190041       0.008220    72.229522       0.005028  -102.788017       0.015424    69.927491    
            
 150.000       0.046687    27.125626       0.013226  -142.809572       0.029531    38.746029       0.015545  -133.049838    
               0.013203  -143.269566       0.051331    33.506253       0.011645  -142.754595       0.036706    42.959590    
               0.029160    37.640154       0.011541  -142.606190       0.028772    29.437066       0.013324  -137.025853    
               0.015423  -133.281754       0.036532    42.856590       0.013333  -137.127197       0.052285    43.583865    
            
 160.000       0.083826     0.928048       0.030739   174.909129       0.060033     2.261358       0.033027  -179.757075    
               0.030722   174.510298       0.087143    12.498752       0.027218   173.524754       0.070704    14.034616    
               0.059216     1.428878       0.027209   173.859193       0.063661     0.209464       0.029538   176.667570    
               0.032994  -179.927590       0.070140    13.963741       0.029565   176.588915       0.094683    17.095187    
            
 170.000       0.068883   -32.627030       0.049324    97.024077       0.045872   -41.327520       0.050882    97.349004    
               0.049056    96.880910       0.101281   -10.921322       0.044518    93.339817       0.082278   -14.771223    
               0.045241   -41.391945       0.044328    93.585860       0.054875   -33.782818       0.047450    93.593420    
               0.050373    97.488955       0.082292   -14.606777       0.047364    93.582487       0.110710    -8.787540    
            
 180.000       0.097653   -34.067637       0.044614    38.698131       0.072076   -39.022056       0.046585    33.858626    
               0.044592    38.538230       0.121814   -41.803199       0.042116    31.260756       0.109116   -50.791586    
               0.070942   -39.410343       0.041905    31.490518       0.086357   -35.489930       0.045725    28.454884    
               0.046661    33.995395       0.108151   -50.796655       0.045918    28.578227       0.138898   -41.668283    
            
 190.000       0.047658   -57.134096       0.012460   -23.088245       0.028511   -86.203817       0.015433   -49.338633    
               0.012239   -22.184478       0.080332   -53.669885       0.014449   -43.431157       0.064003   -73.125067    
               0.028166   -85.973806       0.014390   -42.965512       0.044192   -62.150910       0.017747   -54.711005    
               0.015159   -48.943773       0.063924   -72.918074       0.017735   -54.759743       0.089346   -56.047545    
            
 200.000       0.056991   -26.116666       0.015525    55.604518       0.029110   -21.930418       0.010188    60.650383    
               0.015478    54.981821       0.063058   -58.143575       0.008870    45.490507       0.043439   -85.332553    
               0.028914   -21.839372       0.008844    44.760551       0.053208   -31.652888       0.005972    44.706066    
               0.010065    58.302126       0.043097   -85.193978       0.005945    43.843411       0.069981   -60.719335    
            
 210.000       0.077696   -30.429304       0.017716    19.717958       0.049329   -27.583192       0.012911     9.347871    
               0.017547    19.696053       0.064290   -41.303541       0.011539     5.167785       0.034596   -49.852816    
               0.048861   -27.454245       0.011421     5.487054       0.075014   -37.158745       0.009601    -5.880369    
               0.012473     9.734062       0.034316   -49.704338       0.009472    -5.818536       0.073143   -43.280378    
            
 220.000       0.092917   -37.225493       0.016872    15.199970       0.064469   -35.842426       0.010992     9.258243    
               0.016779    15.391243       0.083958   -40.138891       0.010341     7.846805       0.055575   -39.666665    
               0.063850   -35.691018       0.010346     7.789481       0.091571   -45.003697       0.007504     1.876591    
               0.010909     9.523809       0.055116   -39.580783       0.007485     2.000859       0.097661   -42.851572    
            
 230.000       0.107225   -47.994914       0.018124     3.296772       0.078972   -48.896191       0.012288    -1.287840    
               0.018083     3.625645       0.100921   -49.500866       0.011831    -1.822331       0.075137   -50.263245    
               0.078246   -48.703279       0.011728    -2.042788       0.107446   -56.428187       0.009090    -4.986237    
               0.012191    -0.769360       0.074537   -50.124794       0.009096    -4.654790       0.119811   -53.238190    
            
 240.000       0.116793   -60.030127       0.018426    -9.294601       0.089606   -62.742247       0.012663   -13.898624    
               0.018509    -9.006687       0.112204   -60.827315       0.012407   -13.878917       0.089190   -63.323662    
               0.088872   -62.523461       0.012266   -14.103546       0.118775   -68.941709       0.009812   -16.537013    
               0.012684   -13.427696       0.088587   -63.042604       0.009873   -16.172892       0.134821   -65.507673    
            
 250.000       0.122650   -72.577746       0.018449   -21.780312       0.097472   -76.787950       0.012811   -26.639947    
               0.018578   -21.919924       0.119198   -72.992219       0.012708   -26.619609       0.099366   -77.158550    
               0.096837   -76.592379       0.012528   -26.157886       0.126303   -81.855712       0.010211   -28.353227    
               0.012885   -26.466314       0.098911   -76.897179       0.010332   -28.613433       0.144447   -78.377609    
            
 260.000       0.124809   -85.796298       0.018121   -35.055416       0.102424   -91.439473       0.012699   -40.249368    
               0.018169   -35.680497       0.121474   -85.796857       0.012694   -40.067541       0.105197   -91.594557    
               0.101963   -91.345395       0.012579   -39.397768       0.130292   -95.326538       0.010390   -41.289624    
               0.012732   -40.557694       0.104879   -91.537089       0.010470   -41.904849       0.148537   -91.670297    
            
 270.000       0.122226   -99.511296       0.017252   -48.826216       0.103513  -106.820647       0.012217   -53.870577    
               0.017131   -49.319826       0.118590   -98.656435       0.012198   -53.829844       0.106307  -106.242664    
               0.102924  -106.834912       0.012202   -53.274665       0.130033  -109.457812       0.010236   -54.427992    
               0.012065   -54.366321       0.105642  -106.300567       0.010166   -55.132705       0.146927  -105.100184    
            
 280.000       0.114396  -113.221045       0.015927   -61.862547       0.099665  -122.601469       0.011389   -66.346747    
               0.015774   -61.940211       0.111337  -110.992284       0.011370   -66.402413       0.102819  -120.699373    
               0.099029  -122.660313       0.011424   -66.306071       0.124758  -124.075971       0.009792   -66.615912    
               0.011220   -66.223676       0.101905  -120.646896       0.009686   -66.599278       0.139726  -118.465098    
            
 290.000       0.101887  -126.611683       0.014622   -73.753760       0.091453  -138.446309       0.010791   -76.742363    
               0.014541   -73.397844       0.100890  -122.919132       0.010701   -77.176176       0.095659  -134.976139    
               0.090707  -138.495337       0.010671   -77.340255       0.114828  -138.713614       0.009493   -76.340217    
               0.010671   -76.017229       0.094874  -134.728200       0.009465   -75.717649       0.127961  -131.616433    
            
 300.000       0.084818  -139.765373       0.013846   -85.192004       0.079249  -154.920155       0.010853   -86.145732    
               0.013867   -84.802249       0.086663  -134.812654       0.010606   -87.392370       0.084759  -149.680364    
               0.078605  -154.936372       0.010521   -87.415933       0.100837  -153.634549       0.009878   -85.331263    
               0.010868   -85.266251       0.084346  -149.381161       0.009948   -84.809577       0.111506  -144.962451    
            
 310.000       0.061984  -152.716472       0.013988   -97.905614       0.062327  -173.412216       0.012039   -97.094789    
               0.014051   -97.757395       0.067386  -146.158975       0.011436   -99.261554       0.068952  -165.244384    
               0.061821  -173.475290       0.011322   -99.133456       0.081704  -169.618893       0.011318   -96.328090    
               0.012141   -96.633202       0.068768  -165.169058       0.011439   -96.353262       0.089207  -158.478082    
            
 320.000       0.031358  -160.843452       0.015714  -114.191351       0.038553   163.068802       0.015081  -112.402643    
               0.015759  -114.302522       0.042640  -153.068553       0.013679  -115.428713       0.047050   178.306004    
               0.038155   162.742225       0.013659  -114.953587       0.054871   173.045350       0.014453  -112.028058    
               0.015184  -112.223676       0.046761   178.154950       0.014535  -112.323183       0.060052  -170.771553    
            
 330.000       0.016850   -63.442559       0.020656  -137.232523       0.007760    95.740760       0.021528  -135.302027    
               0.020722  -137.326350       0.018759  -125.173736       0.018849  -138.196417       0.018385   163.812240    
               0.007557    91.424294       0.018868  -137.802351       0.018165   161.291466       0.020662  -135.436271    
               0.021684  -135.137737       0.017961   163.563679       0.020737  -135.523881       0.025114  -169.180813    
            
 340.000       0.061718   -63.032182       0.030670  -172.662194       0.035369   -54.978432       0.032793  -170.687597    
               0.030727  -173.061365       0.035640   -65.185032       0.028568  -173.396342       0.017037   -54.982412    
               0.035775   -55.887298       0.028554  -173.063164       0.028219   -77.590133       0.031176  -171.114919    
               0.032992  -170.934390       0.017277   -54.468498       0.031340  -171.257370       0.026782   -74.381078    
            
 350.000       0.090686   -85.393262       0.041063   145.432872       0.063128   -87.570737       0.043065   147.727518    
               0.040875   145.056941       0.069696   -69.468225       0.038009   144.878552       0.053316   -68.904366    
               0.062804   -87.920249       0.038064   145.318670       0.059943   -96.201151       0.040614   147.180802    
               0.042980   147.470612       0.053427   -68.810268       0.040679   146.863964       0.068316   -73.893381    
            
 360.000       0.098019  -110.590721       0.052073   104.979401       0.074369  -118.202595       0.053224   107.178553    
               0.051647   104.929529       0.104629   -85.939498       0.047819   104.193631       0.092191   -90.041979    
               0.073693  -118.527278       0.048054   104.447666       0.074265  -120.988940       0.050237   106.147402    
               0.052768   107.129509       0.091954   -90.077597       0.049954   105.938425       0.113721   -90.431760    
            
 370.000       0.082826  -118.112126       0.063141    71.550796       0.062472  -127.542466       0.063337    72.869113    
               0.062764    71.888754       0.127585  -110.122467       0.057721    70.033142       0.122835  -117.851115    
               0.061936  -127.564121       0.058063    69.863237       0.064470  -126.360022       0.060004    70.858014    
               0.062852    73.416016       0.122032  -117.693003       0.059527    71.305640       0.148443  -115.408573    
            
 380.000       0.088424  -117.855368       0.078546    33.452102       0.069601  -124.526200       0.078460    32.834789    
               0.078781    33.925508       0.119443  -129.101062       0.072790    30.767550       0.120197  -140.193021    
               0.069087  -124.569505       0.072437    30.340659       0.074540  -121.289948       0.074666    30.068169    
               0.078767    33.659599       0.120138  -139.717988       0.075115    30.904542       0.144996  -135.518671    
            
 390.000       0.110877  -130.234120       0.085503    -9.013501       0.096048  -136.315716       0.086164   -11.969891    
               0.086478    -9.070910       0.120275  -141.920709       0.081564   -13.668944       0.125967  -153.772951    
               0.095359  -136.513245       0.080486   -13.669238       0.103179  -132.366192       0.083472   -15.253804    
               0.087705   -11.841351       0.126707  -153.682406       0.085143   -15.037037       0.151316  -148.199025    
            
 400.000       0.101023  -162.311748       0.069152   -59.362304       0.096685  -171.072808       0.073289   -65.816193    
               0.069284   -60.040672       0.108713  -165.347031       0.069350   -66.980212       0.126003  -178.273090    
               0.095401  -171.217099       0.068942   -66.388379       0.101962  -164.011008       0.073923   -69.614253    
               0.073861   -66.830482       0.126337  -178.782251       0.074806   -70.492296       0.148134  -170.908788    
            
 410.000       0.047450  -162.747385       0.032228   -90.658897       0.046565   177.959725       0.037724  -106.868212    
               0.032034   -91.068601       0.067828  -177.999768       0.036156  -105.310175       0.090674   161.523264    
               0.045948   178.218214       0.036174  -105.146988       0.055205  -166.879034       0.041412  -112.525882    
               0.037398  -107.949713       0.089877   160.921675       0.041267  -113.281363       0.106981   172.781547    
            
